"Freq [GHz]","dB(S(port1,port1)) [] - tamano_extra='-1mm'","dB(S(port1,port1)) [] - tamano_extra='-0.96mm'","dB(S(port1,port1)) [] - tamano_extra='-0.92mm'","dB(S(port1,port1)) [] - tamano_extra='-0.88mm'","dB(S(port1,port1)) [] - tamano_extra='-0.84mm'","dB(S(port1,port1)) [] - tamano_extra='-0.8mm'","dB(S(port1,port1)) [] - tamano_extra='-0.76mm'","dB(S(port1,port1)) [] - tamano_extra='-0.72mm'","dB(S(port1,port1)) [] - tamano_extra='-0.68mm'","dB(S(port1,port1)) [] - tamano_extra='-0.64mm'","dB(S(port1,port1)) [] - tamano_extra='-0.6mm'","dB(S(port1,port1)) [] - tamano_extra='-0.56mm'","dB(S(port1,port1)) [] - tamano_extra='-0.52mm'","dB(S(port1,port1)) [] - tamano_extra='-0.48mm'","dB(S(port1,port1)) [] - tamano_extra='-0.44mm'","dB(S(port1,port1)) [] - tamano_extra='-0.4mm'","dB(S(port1,port1)) [] - tamano_extra='-0.36mm'","dB(S(port1,port1)) [] - tamano_extra='-0.32mm'","dB(S(port1,port1)) [] - tamano_extra='-0.28mm'","dB(S(port1,port1)) [] - tamano_extra='-0.24mm'","dB(S(port1,port1)) [] - tamano_extra='-0.2mm'","dB(S(port1,port1)) [] - tamano_extra='-0.16mm'","dB(S(port1,port1)) [] - tamano_extra='-0.12mm'","dB(S(port1,port1)) [] - tamano_extra='-0.08mm'","dB(S(port1,port1)) [] - tamano_extra='-0.04mm'","dB(S(port1,port1)) [] - tamano_extra='-0.01mm'","dB(S(port1,port1)) [] - tamano_extra='0mm'"
67,-17.1815291132008,-16.4118365907194,-15.1409908176827,-13.9693350658701,-12.6196689696152,-12.7460462386421,-14.1823757346598,-12.3010270429229,-12.9718605920013,-12.0862153803748,-11.3524024958061,-11.1653586562634,-11.6682787604585,-11.4816702030166,-11.2996358703246,-11.5593164281571,-11.1951053192004,-11.1963558701822,-11.2126282371087,-11.2014351855372,-11.0314714880233,-10.7950417958298,-10.6711860518473,-10.5630419934217,-10.5446648576861,-10.5832247983559,-10.6812406585587
68,-15.8544061935365,-15.2985311410694,-14.0222930706986,-13.974892679062,-12.9992926838595,-13.0594575489969,-14.1099465318502,-12.573901392798,-12.6031277029202,-12.2875795046588,-12.0391399445271,-11.8140164122286,-12.1758981107308,-12.1151688813596,-11.9697730107871,-12.2683980809517,-11.9446171174515,-11.9977566988286,-12.0358769863886,-12.1245993743303,-11.9981458064881,-11.8475456333504,-11.7627365280859,-11.7057444805657,-11.7327105410266,-11.786178090659,-11.9086782568087
69,-14.6728148973387,-14.3017039981257,-13.1653861862392,-13.6242430464298,-13.0325426947686,-13.03346512611,-13.6669755488302,-12.7877899893624,-12.4097453954573,-12.5522923800142,-12.5994039918588,-12.4228040417346,-12.6536706341109,-12.6494730833837,-12.572596028497,-12.86687767186,-12.6842430254762,-12.7685827539962,-12.8222862483988,-12.9730235823249,-12.9292146834962,-12.9063159658299,-12.8725386121271,-12.8924538846492,-12.9744489567308,-13.0745786511753,-13.2187929055663
70,-13.6356338085796,-13.4003816543198,-12.5371857831293,-13.0569014193001,-12.7813583596368,-12.7835111023073,-13.1346866718455,-12.8464127855122,-12.3667572097085,-12.7815884493772,-12.980623999507,-12.9016961033254,-13.0444116972924,-13.137760556353,-13.1431934848768,-13.3778969224355,-13.3457029602078,-13.4885582016631,-13.5705772491465,-13.7668825353197,-13.8240510112455,-13.9186041193231,-13.9764485182826,-14.0969344368207,-14.2583965862485,-14.4469822088456,-14.629422989699
71,-12.719425126967,-12.5737709370397,-12.0398252290072,-12.4240971667418,-12.3679531109124,-12.4302816797502,-12.6522642473021,-12.7531578107672,-12.4167059238693,-12.9272300085315,-13.2030448510784,-13.2450631793301,-13.3692873613329,-13.5807217804993,-13.6736106685902,-13.8514138013803,-13.9456558554454,-14.1768635163336,-14.3064397333357,-14.5473491451227,-14.7104088562195,-14.908181051292,-15.0865109934474,-15.3294435477061,-15.6058464920596,-15.9324520838594,-16.1822467344584
72,-11.9102618328234,-11.8217266797649,-11.5899963451858,-11.8318347168992,-11.9105343998888,-12.064772299999,-12.2666678116461,-12.5666964482261,-12.4959696144588,-12.9911721230909,-13.3223667989192,-13.4936854348374,-13.6654191398771,-13.9687497621424,-14.1548228762454,-14.334279029182,-14.5467047135528,-14.8647379649323,-15.0589974154109,-15.353500099293,-15.6209510095083,-15.9221913291748,-16.2303123507817,-16.6179788561338,-17.0543040437264,-17.5763155021971,-17.9210900634177
73,-11.2160177985953,-11.1659826132185,-11.1570417638702,-11.3349657774594,-11.4906992508878,-11.7421584956606,-11.9831392982032,-12.3585587213167,-12.5602061382534,-13.0042159847833,-13.3953169790968,-13.6961867337179,-13.9556469485306,-14.3089081756127,-14.5985945322113,-14.8623850602345,-15.2136873055576,-15.5800585596806,-15.8512630641429,-16.2139221823054,-16.5825193053742,-16.9960100234491,-17.4376211435174,-17.9959033462155,-18.6489918528715,-19.4386883889992,-19.9036883719394
74,-10.6578997362485,-10.6361539087152,-10.7555096400954,-10.9511583906648,-11.1518803681554,-11.4893640920745,-11.7921653094387,-12.1871772200085,-12.5953918211307,-13.0050245850669,-13.4635777308282,-13.8875144280448,-14.246564744497,-14.6286731042511,-15.0369436841558,-15.4570917143661,-15.9811693371234,-16.3431443239623,-16.7000965942842,-17.1479519133864,-17.6154737731826,-18.1466182105305,-18.7355959626501,-19.4973329000265,-20.442838533699,-21.6059191656603,-22.2323338705792
75,-10.2519462978803,-10.2507738601797,-10.4201470119524,-10.6768129005729,-10.9101152755616,-11.3156114596024,-11.6817718534816,-12.0867471300184,-12.6134465666863,-13.0266316403158,-13.5520945067036,-14.0855386186746,-14.539232983448,-14.9655993684215,-15.5073073151823,-16.1196452328064,-16.8346924942932,-17.1682462629618,-17.6193917214744,-18.1701299431711,-18.737538509748,-19.3844617743524,-20.1498517064811,-21.1580869133042,-22.5033629334128,-24.2200520634376,-25.1069231587378
76,-9.99466830891709,-10.0061072114301,-10.1817760743752,-10.5006257423962,-10.766253235348,-11.2216947384485,-11.6426020745847,-12.0674544920724,-12.6391284878966,-13.0902512994051,-13.6736600783812,-14.2977545786647,-14.8389143811747,-15.3530005448137,-16.0346932727715,-16.8309902336959,-17.7209460925852,-18.0655719515178,-18.6222915286029,-19.2941811410011,-19.9681196500166,-20.7286148884808,-21.70835577045,-23.0195040726433,-24.9262556665291,-27.5538961464018,-28.9618512435598
77,-9.86339052400713,-9.88050153558986,-10.0539089911498,-10.4135190710857,-10.7158208006456,-11.2064322806,-11.669339665214,-12.1234512981709,-12.696619679372,-13.2048773323542,-13.834534159306,-14.5297020722682,-15.1580348524995,-15.8082164522721,-16.6218514990064,-17.5612251376863,-18.5815543778054,-19.040962614046,-19.7207658632643,-20.5352310766059,-21.3315891809001,-22.2157256102488,-23.4469257488778,-25.1335790756037,-27.8576178704786,-32.2622846381345,-35.0630112483209
78,-9.82997154284896,-9.84980978661543,-10.0339716266703,-10.4137616857321,-10.7551976048666,-11.2698115550708,-11.7602187046762,-12.2435233441752,-12.8018634465038,-13.3709780531816,-14.0387432030093,-14.7901912636152,-15.51241040759,-16.3276487078515,-17.2513496523519,-18.2816438931629,-19.3796208638967,-20.0921991312172,-20.9221482887072,-21.9097546931331,-22.8597275531167,-23.9010127200882,-25.4176014928294,-27.5683066681372,-31.5109300846984,-40.7447208504903,-52.7107229332976
79,-9.87674129707222,-9.90203850726378,-10.1141974188042,-10.506912099366,-10.8837096553339,-11.4131646301728,-11.9157117570736,-12.4195452146686,-12.9621452728398,-13.5860249039254,-14.2903337618678,-15.0916480395863,-15.913651399685,-16.8896944139943,-17.8946147470913,-18.9708508707395,-20.1028508535895,-21.201599387677,-22.2217136273457,-23.431660760943,-24.593742070978,-25.8566823814793,-27.7045122360496,-30.4056691840743,-35.9138387711756,-44.6226942556924,-38.1820239787732
80,-10.0043375511388,-10.0424722579242,-10.2917642032784,-10.7014387137477,-11.1022255770952,-11.6374471786872,-12.1371524046801,-12.6501842951704,-13.1803458905287,-13.8494022058789,-14.593743514049,-15.4460747661396,-16.3622044247981,-17.4628063504129,-18.5207673611602,-19.6141081250042,-20.7528855208865,-22.3247746333256,-23.5883055855326,-25.0989935238691,-26.5838544377745,-28.1791259975748,-30.459535545554,-33.6792861657519,-38.549415803216,-35.5680257190671,-32.4578539724146
81,-10.2276018950474,-10.2872674396954,-10.5705468506174,-11.0020782972786,-11.4098344947211,-11.9411141990505,-12.4257137536397,-12.9399597383996,-13.4598502103933,-14.1649218923494,-14.95297312399,-15.8589476329522,-16.8451420531943,-18.0141294700896,-19.101831699319,-20.1998062234735,-21.3341202839898,-23.3779020688125,-24.9388473090798,-26.8569347560112,-28.8733050541746,-31.0184317963431,-33.9976789160354,-36.9686721341439,-36.3549619325522,-31.7019954304908,-29.5774512673197
82,-10.5616915755257,-10.6491313883448,-10.9540863938438,-11.4040181227037,-11.8007417036,-12.3189672899149,-12.7818542062708,-13.2954554168884,-13.8070954716485,-14.5402823671228,-15.3704135544637,-16.3245560496689,-17.339675349475,-18.5155965181748,-19.6147484115757,-20.71627446406,-21.8468961586441,-24.2354941283659,-26.1082375074778,-28.515554900957,-31.4069873341071,-34.6312282939291,-39.127408784986,-38.4279476678816,-33.6345560301343,-29.4937476259428,-27.8349399684605
83,-11.0060147485812,-11.1233660618615,-11.4356318741024,-11.8909038789135,-12.2631751884876,-12.7626666190185,-13.2051504000498,-13.7212171699061,-14.2306268550943,-14.9838418151594,-15.8459063480018,-16.8254988122955,-17.8196748380931,-18.9468375688738,-20.0418634573631,-21.1501930048724,-22.2845144786205,-24.7636451311557,-26.8636553613776,-29.6662299255755,-33.680216503574,-39.2015233262594,-48.4289603472301,-37.1750527128037,-31.7274945831292,-28.1104997010494,-26.7176714711502
84,-11.5361956095176,-11.6832292058281,-11.9929557437035,-12.4376655649068,-12.7808767775535,-13.2626972429464,-13.6943753837124,-14.2175984424464,-14.7372437665343,-15.4998410790964,-16.375883254983,-17.3362945975912,-18.2614992318104,-19.2957125176782,-20.3711241082013,-21.4868423755944,-22.6327196316518,-24.8943584222018,-27.0377277275375,-29.8817845657035,-34.3812634718699,-41.6469333300762,-45.2613988586201,-35.2595450503525,-30.465751862864,-27.2351383124004,-26.0066894290519
85,-12.1088271854716,-12.2868300742439,-12.5915498391783,-13.0164108451669,-13.3364309607002,-13.8109611495085,-14.2476614935978,-14.7814198582095,-15.327020976165,-16.0835531933338,-16.9514621890286,-17.8286705142042,-18.6471935596045,-19.5575270416558,-20.5964355308156,-21.7121183779787,-22.8712427956772,-24.6770231212123,-26.6856089792934,-29.226078478197,-33.1408154900832,-38.1979501359128,-38.7426356526112,-33.6660141796743,-29.6568492451711,-26.7154901462213,-25.593654608794
86,-12.673984329845,-12.8894364476399,-13.1933989821055,-13.6025078206567,-13.9151361677839,-14.4030342999761,-14.8624793490966,-15.4082689813749,-15.9891813933446,-16.7174836598423,-17.5537539984815,-18.2759886480671,-18.9652180251808,-19.7337242737406,-20.7181101418288,-21.8159890335463,-22.9778490346456,-24.2420826169982,-26.0316331834241,-28.1682127263638,-31.2821350829871,-34.6792977624086,-35.253663109365,-32.4654607550561,-29.1779415904995,-26.4684377242551,-25.4207910769227
87,-13.1871186465781,-13.4538802650955,-13.7661480912784,-14.1790936655218,-14.5084488600539,-15.039185788843,-15.5348142901476,-16.0933986736352,-16.6994944681971,-17.3688456282847,-18.1458908448093,-18.6558036960843,-19.2097932617658,-19.830541212337,-20.7431633459065,-21.7966124660636,-22.9352576989186,-23.7235528023433,-25.2917385040985,-27.0785102973298,-29.5960354038042,-32.1563264137512,-32.9950966416985,-31.5732859262431,-28.9510169345954,-26.4447452043336,-25.4552342236653
88,-13.6168056651104,-13.9567430897239,-14.2903018317543,-14.7401553142776,-15.1165561282316,-15.7229336010197,-16.2561403363258,-16.8266188336807,-17.4178248252578,-17.9881849127026,-18.6671534352759,-18.9509611394344,-19.3798630533786,-19.8579051641736,-20.6852757799138,-21.6639113640025,-22.7400293831635,-23.2161946978979,-24.5953983662863,-26.1151017288139,-28.2323691667164,-30.3358380543089,-31.3923923972128,-30.9080932427043,-28.9231327919244,-26.61387816563,-25.6768942909478
89,-13.9507789025504,-14.3927293046056,-14.7663683010226,-15.2935582761439,-15.7493966141155,-16.4546622458764,-17.0054541531061,-17.5757648387559,-18.0840582908873,-18.5107627389129,-19.0435214198105,-19.1501416049783,-19.4782532387998,-19.828689330131,-20.5643830339325,-21.4414535531477,-22.4107466132258,-22.7736870109525,-24.0014631729405,-25.3211469740402,-27.165281962667,-29.0004944977874,-30.2004922172641,-30.4084466186503,-29.0549491455825,-26.9569824480958,-26.0733638387249
90,-14.2055237994496,-14.7816498091115,-15.226749380237,-15.8651088021706,-16.4230495044685,-17.2157187282518,-17.7326787849569,-18.259258273481,-18.6150593828498,-18.8659434092217,-19.2228545283176,-19.2485515502083,-19.5112357586541,-19.7583040475256,-20.4058912996854,-21.1660626733424,-21.9922198677475,-22.4217613977873,-23.5305843543344,-24.6975106226416,-26.345194583432,-28.0105765249481,-29.2938618560928,-30.0293191130177,-29.3139508239728,-27.4635885215203,-26.6389316454468
91,-14.4437303690075,-15.1822200610431,-15.7546587670523,-16.500153039175,-17.1414089107424,-17.9390205455587,-18.3351540278988,-18.7352650550361,-18.9155270057459,-18.9998548787001,-19.2079990602723,-19.2489754284381,-19.4884667003273,-19.6644519837853,-20.2393667113115,-20.8850765796726,-21.5536044966641,-22.1706499276927,-23.1866662570781,-24.2334919825525,-25.7300350050963,-27.2669644890974,-28.6005236074853,-29.7377738297203,-29.6699133966595,-28.1298544726738,-27.3756986241588
92,-14.7938907985746,-15.709000638582,-16.4793483408869,-17.2393173324978,-17.8435815452616,-18.4801155164655,-18.6553645835442,-18.8649100188458,-18.9187215008612,-18.9041147853236,-19.0492384120062,-19.1628784848403,-19.4231053469875,-19.5667292014182,-20.0963055875907,-20.6510483940337,-21.1794059319067,-22.0231634279287,-22.9676201996891,-23.9173968998823,-25.2889704356408,-26.699581869192,-28.0762467833423,-29.5101147053873,-30.0913203622723,-28.9568351628607,-28.2953341180057
93,-15.4376834981177,-16.5078393537632,-17.409936009089,-18.0020355815424,-18.3285964528486,-18.6509440770844,-18.5604974244701,-18.6289550983021,-18.6398000378634,-18.6265315637194,-18.8079075513071,-19.0108102877381,-19.3317840689585,-19.4856589525647,-20.006561982483,-20.5134838210797,-20.9525502429732,-21.979028661852,-22.8699076041547,-23.7393704026984,-25.0007603491437,-26.2666377159074,-27.6927843500225,-29.3301356634264,-30.5424536579678,-29.9471530702526,-29.4205485993785
94,-16.5063770519439,-17.5599353042763,-18.1141942657428,-18.4162144506078,-18.3252847531161,-18.3646406601051,-18.0780023790772,-18.1433954595494,-18.1807228405971,-18.2491924484178,-18.5315726581484,-18.8211837059291,-19.2339915395348,-19.4408120751224,-19.9935417239303,-20.5083482615363,-20.9316748699864,-22.0367584683501,-22.8900108004313,-23.6916150425625,-24.8514307384366,-25.9554294617379,-27.4318293864578,-29.1879268119258,-30.9820190951395,-31.0973737070023,-30.7854665982166
95,-17.8506505693322,-18.3608920197524,-18.1102743673151,-18.1370626317025,-17.8108799029186,-17.7355037350212,-17.3969256693423,-17.5546605212402,-17.6692843644582,-17.8522399839717,-18.2516000595898,-18.6268409924147,-19.1504476390872,-19.4480264017647,-20.0693584635847,-20.6487919614741,-21.1324559537094,-22.1940986695898,-23.0246203017799,-23.7680533281115,-24.8322613661306,-25.7815092145218,-27.2816184837969,-29.0788925783509,-31.3652137489262,-32.3807373003969,-32.4323315890528
96,-18.7010948281056,-18.2953808749895,-17.5649282942244,-17.3964594850275,-17.052684094886,-16.9712053781829,-16.7138271612384,-16.9653116833856,-17.1971550451628,-17.4911985338255,-17.9904056456049,-18.4597802733652,-19.1003402136087,-19.5163669395477,-20.2320037850962,-20.9220183584204,-21.525416152956,-22.4477885497867,-23.2705087927218,-23.9642383566624,-24.9383437968638,-25.7831384198923,-27.2349638366355,-29.0028318604045,-31.650936689241,-33.7116024365982,-34.3929070953985
97,-18.2408920429487,-17.509293123655,-16.8267183944818,-16.5700064995507,-16.2858300331359,-16.228041444115,-16.1318831288574,-16.4325738327789,-16.8050587527615,-17.1952698556165,-17.767864780296,-18.3456129645675,-19.0979152429352,-19.6460106425261,-20.4661142384641,-21.2943570777114,-22.0510757792616,-22.793068552909,-23.6244991689391,-24.2776809062648,-25.1678076080418,-26.0055298636712,-27.2882098692513,-28.9630618258723,-31.8128790585759,-34.8924478345999,-36.6061675330608
98,-17.1258235443221,-16.5080875597503,-16.0604866082222,-15.8065663534841,-15.6000142596184,-15.5806241676869,-15.6721662951821,-15.9889834058722,-16.5013722230048,-16.9769949595705,-17.6036882740679,-18.2998235813846,-19.1495815344257,-19.8281438540297,-20.7471119155324,-21.7214439260912,-22.6401342757263,-23.2230309818127,-24.0834441794979,-24.7083502173968,-25.5217006603802,-26.472673222234,-27.4408674832081,-28.9656287618914,-31.8486177422944,-35.6103242119817,-38.6352171245232
99,-16.1246088389355,-15.5785984819574,-15.325134648299,-15.1331258929932,-15.0113340533434,-15.0532082176379,-15.3200353798269,-15.6552143686173,-16.2848524572356,-16.8425228887384,-17.5160488860421,-18.327043015791,-19.2528183951287,-20.0470745666978,-21.0468296781721,-22.1582932409513,-23.2276246793237,-23.7275525538067,-24.6436743221918,-25.258816189261,-26.0043683004713,-27.1589680418685,-27.6957413572527,-29.0186486315699,-31.7800132531959,-35.6271920205341,-39.3634751487673
100,-15.3169922106011,-14.8063793223467,-14.6551481776492,-14.5567824344685,-14.5220305859529,-14.6498612525045,-15.0585375458775,-15.4432801253912,-16.1577019576565,-16.7973076659763,-17.5179104494044,-18.4229006745439,-19.3974217995858,-20.2836882627241,-21.3385144553294,-22.5661241424603,-23.7595256074782,-24.2912749654021,-25.2989484508922,-25.9332771887361,-26.6240337948896,-27.9837524320878,-28.0593681360038,-29.131775221384,-31.6442724547398,-35.0304172578871,-38.2885604491811
101,-14.6187699326676,-14.1814844790876,-14.083537538201,-14.090049240626,-14.1400699546675,-14.3702336992592,-14.8835527130851,-15.3564794575985,-16.1281825268133,-16.8466553600214,-17.6131520766623,-18.5769642652937,-19.5684584202805,-20.5189220098582,-21.6000765954463,-22.9156963380226,-24.1954878153557,-24.8901403498614,-26.0356224311129,-26.7344693837928,-27.3931496237731,-28.8365339037273,-28.5426087515125,-29.3157348088342,-31.481802995457,-34.1276295428405,-36.466867359954
102,-13.9910574473376,-13.6673087761814,-13.6385773030617,-13.747055713867,-13.8791824780285,-14.2157515204907,-14.8069312476472,-15.3913845114358,-16.2063218689882,-16.9928123617776,-17.7946444205805,-18.7754378833601,-19.7496209340802,-20.7362799922896,-21.815529205199,-23.1881837816756,-24.5104459782855,-25.4868095149396,-26.823905429891,-27.6570628032396,-28.3278750673474,-29.6146715248637,-29.1613357747851,-29.5818266789481,-31.3272437563501,-33.1764179742565,-34.71511964312
103,-13.4420666271558,-13.2461834977804,-13.3344713057468,-13.5359992885342,-13.7534968001623,-14.1914675305562,-14.8518711262341,-15.5429332186741,-16.3970004112656,-17.2311667762603,-18.0453851127097,-19.0030853366015,-19.9258764743276,-20.9230995099034,-21.975110319832,-23.3745315700601,-24.6952515748884,-26.0275495982122,-27.6060155520171,-28.6756476379978,-29.4454103992686,-30.2508869633994,-29.9373579354155,-29.9412944819753,-31.2056676016791,-32.3071766109635,-33.2419564246804
104,-12.9989289604719,-12.9298142247937,-13.1688118407718,-13.4587584465444,-13.7743337736543,-14.306171164343,-15.0427467177983,-15.8093531976375,-16.694627694284,-17.548033930198,-18.3420819321223,-19.2444622233328,-20.0849772296882,-21.0707982235593,-22.0746583266174,-23.4738792177257,-24.7552344128039,-26.4465205855657,-28.2883631923187,-29.7259018315864,-30.7559703995159,-30.7211545518483,-30.9000714396716,-30.4045343496102,-31.1325985663122,-31.5669880444216,-32.0489791655303
